CITIFILE A.01.00
#NA VERSION HP8720ES.07.74: Oct 30, 2002
NAME DATA
VAR FREQ MAG 201
DATA S[1,1] RI
SEG_LIST_BEGIN
SEG 2000000000 3000000000 201
SEG_LIST_END
BEGIN
5.88409E-1,-8.42285E-3
5.81268E-1,-1.19628E-2
5.76080E-1,-1.85241E-2
5.66436E-1,-2.20336E-2
5.60150E-1,-2.48718E-2
5.55267E-1,-2.92968E-2
5.50720E-1,-3.48815E-2
5.41870E-1,-4.20227E-2
5.32959E-1,-4.61425E-2
5.23864E-1,-4.84008E-2
5.17517E-1,-5.05065E-2
5.13641E-1,-5.71289E-2
5.05004E-1,-6.31408E-2
4.93713E-1,-7.01599E-2
4.81933E-1,-7.27691E-2
4.71923E-1,-7.22351E-2
4.64874E-1,-7.37609E-2
4.57077E-1,-7.64923E-2
4.48333E-1,-7.85675E-2
4.40261E-1,-7.96966E-2
4.34295E-1,-8.38317E-2
4.22637E-1,-8.59985E-2
4.16336E-1,-8.63189E-2
4.09637E-1,-8.79669E-2
4.02572E-1,-9.22088E-2
3.93356E-1,-9.42993E-2
3.84948E-1,-9.97314E-2
3.72741E-1,-1.02081E-1
3.60748E-1,-1.01257E-1
3.53332E-1,-1.00448E-1
3.45397E-1,-9.98077E-2
3.39798E-1,-1.01196E-1
3.31863E-1,-1.02478E-1
3.22662E-1,-1.06201E-1
3.09707E-1,-1.03698E-1
3.06137E-1,-9.92431E-2
3.01025E-1,-1.03790E-1
2.91870E-1,-1.06842E-1
2.84454E-1,-1.05056E-1
2.79296E-1,-1.07559E-1
2.71560E-1,-1.08932E-1
2.65518E-1,-1.10488E-1
2.57995E-1,-1.14059E-1
2.49145E-1,-1.17065E-1
2.37884E-1,-1.17698E-1
2.27294E-1,-1.17172E-1
2.20703E-1,-1.14440E-1
2.13958E-1,-1.14448E-1
2.07275E-1,-1.16500E-1
1.97494E-1,-1.17599E-1
1.88598E-1,-1.15280E-1
1.84677E-1,-1.14288E-1
1.75804E-1,-1.17172E-1
1.66069E-1,-1.14685E-1
1.58630E-1,-1.14151E-1
1.47270E-1,-1.11343E-1
1.40312E-1,-1.06628E-1
1.33834E-1,-1.03820E-1
1.29684E-1,-1.03210E-1
1.22634E-1,-1.04652E-1
1.12735E-1,-1.05667E-1
1.02829E-1,-1.03080E-1
9.57183E-2,-9.86251E-2
9.25293E-2,-9.53598E-2
8.89358E-2,-9.64202E-2
8.19168E-2,-9.62295E-2
7.49511E-2,-9.78622E-2
6.58912E-2,-9.69314E-2
5.65452E-2,-9.54666E-2
4.69207E-2,-9.10339E-2
4.21409E-2,-8.49914E-2
3.87573E-2,-8.181E-2
3.67889E-2,-8.20312E-2
3.19290E-2,-8.29162E-2
2.59475E-2,-8.18672E-2
2.11525E-2,-8.26797E-2
1.38740E-2,-8.06808E-2
1.08566E-2,-7.99865E-2
0.48217E-2,-8.23822E-2
-6.09588E-3,-8.24966E-2
-1.58920E-2,-7.97958E-2
-2.14347E-2,-7.55577E-2
-2.93769E-2,-7.45735E-2
-3.61633E-2,-7.03239E-2
-4.04586E-2,-6.67266E-2
-4.39453E-2,-6.47430E-2
-4.91561E-2,-6.50177E-2
-5.61561E-2,-6.00738E-2
-5.81436E-2,-5.59158E-2
-6.15730E-2,-5.47981E-2
-6.62574E-2,-5.23033E-2
-6.81304E-2,-5.09414E-2
-7.47604E-2,-5.30853E-2
-8.27865E-2,-5.06210E-2
-8.74977E-2,-4.54177E-2
-8.98094E-2,-4.28009E-2
-9.26780E-2,-4.28161E-2
-9.65309E-2,-4.25109E-2
-1.03569E-1,-4.17099E-2
-1.06361E-1,-3.7323E-2
-1.11618E-1,-3.63769E-2
-1.17073E-1,-3.28979E-2
-1.18568E-1,-2.99491E-2
-1.23191E-1,-2.98767E-2
-1.28852E-1,-2.69928E-2
-1.30203E-1,-2.65502E-2
-1.36673E-1,-2.61383E-2
-1.41067E-1,-2.34451E-2
-1.44790E-1,-2.09884E-2
-1.45561E-1,-1.61895E-2
-1.44836E-1,-1.88140E-2
-1.49421E-1,-1.90506E-2
-1.54769E-1,-1.80816E-2
-1.59408E-1,-1.55639E-2
-1.63604E-1,-1.27487E-2
-1.65702E-1,-8.75091E-3
-1.66229E-1,-8.62121E-3
-1.68655E-1,-8.42285E-3
-1.70959E-1,-9.37652E-3
-1.73202E-1,-8.71276E-3
-1.77291E-1,-1.14822E-2
-1.84753E-1,-9.59777E-3
-1.90399E-1,-5.86700E-3
-1.93969E-1,0.00869E-1
-1.88827E-1,0.05462E-1
-1.88324E-1,0.00991E-1
-1.94763E-1,-6.40869E-4
-1.99371E-1,0.02609E-1
-1.97189E-1,0.04974E-1
-1.96472E-1,0.01373E-1
-2.02331E-1,-4.82177E-3
-2.09381E-1,-2.35748E-3
-2.13790E-1,-9.23156E-4
-2.16735E-1,0.02731E-1
-2.17285E-1,0.02349E-1
-2.22694E-1,0.02288E-1
-2.24975E-1,0.04821E-1
-2.28103E-1,0.04318E-1
-2.31277E-1,0.03601E-1
-2.3703E-1,0.03326E-1
-2.41378E-1,0.08575E-1
-2.41439E-1,0.11093E-1
-2.41806E-1,0.12573E-1
-2.40837E-1,0.12031E-1
-2.43209E-1,0.11596E-1
-2.44720E-1,0.13031E-1
-2.46963E-1,0.12512E-1
-2.50152E-1,0.12817E-1
-2.53036E-1,0.13046E-1
-2.55859E-1,0.14587E-1
-2.56103E-1,0.15747E-1
-2.58361E-1,0.15564E-1
-2.59109E-1,0.16342E-1
-2.58361E-1,0.13977E-1
-2.63763E-1,0.10070E-1
-2.69851E-1,0.13824E-1
-2.73223E-1,0.19271E-1
-2.71194E-1,0.23040E-1
-2.70141E-1,0.23239E-1
-2.69897E-1,0.22827E-1
-2.67776E-1,0.20645E-1
-2.69836E-1,0.15655E-1
-2.74459E-1,0.12771E-1
-2.79541E-1,0.11581E-1
-2.83294E-1,0.14297E-1
-2.83264E-1,0.15625E-1
-2.82989E-1,0.15014E-1
-2.85690E-1,0.13458E-1
-2.87002E-1,0.14205E-1
-2.88375E-1,0.10589E-1
-2.93243E-1,0.08651E-1
-2.98553E-1,0.09903E-1
-3.00201E-1,0.112E-1
-3.03207E-1,0.11596E-1
-3.02566E-1,0.13076E-1
-3.01452E-1,0.10345E-1
-3.013E-1,0.10177E-1
-3.02108E-1,0.05905E-1
-3.08303E-1,0.03738E-1
-3.10394E-1,0.08346E-1
-3.10943E-1,0.09704E-1
-3.09417E-1,0.09307E-1
-3.10165E-1,0.07751E-1
-3.11798E-1,0.03479E-1
-3.16696E-1,0.01464E-1
-3.17108E-1,0.02395E-1
-3.17703E-1,-7.01904E-4
-3.19885E-1,-3.44848E-3
-3.22509E-1,-2.62451E-3
-3.23547E-1,-4.24194E-3
-3.28887E-1,-3.50952E-3
-3.26828E-1,-2.86865E-3
-3.28125E-1,-5.70678E-3
-3.31405E-1,-6.89697E-3
-3.34335E-1,-7.26318E-3
-3.36242E-1,-5.67627E-3
-3.36242E-1,-7.72094E-3
-3.37982E-1,-9.42993E-3
-3.40698E-1,-1.08032E-2
-3.41659E-1,-1.08032E-2
-3.43490E-1,-1.12152E-2
END

