CITIFILE A.01.00
#NA VERSION HP8720ES.07.74: Oct 30, 2002
NAME DATA
VAR FREQ MAG 201
DATA S[1,1] RI
SEG_LIST_BEGIN
SEG 2000000000 3000000000 201
SEG_LIST_END
BEGIN
3.64257E-1,6.33483E-1
4.05212E-1,5.93505E-1
4.49462E-1,5.33813E-1
4.98748E-1,4.60479E-1
5.49987E-1,3.81988E-1
5.97412E-1,3.06915E-1
6.40655E-1,2.43286E-1
6.75048E-1,1.92993E-1
6.97143E-1,1.49536E-1
7.07336E-1,1.10382E-1
7.03308E-1,0.66162E-1
6.88140E-1,0.11962E-1
6.64978E-1,-6.17675E-2
6.32873E-1,-1.48010E-1
5.95581E-1,-2.34710E-1
5.63354E-1,-3.15002E-1
5.37231E-1,-3.80523E-1
5.18249E-1,-4.30084E-1
5.00579E-1,-4.64874E-1
4.76135E-1,-4.86114E-1
4.40551E-1,-5.01556E-1
3.88641E-1,-5.16967E-1
3.18389E-1,-5.34973E-1
2.37823E-1,-5.55877E-1
1.56829E-1,-5.80169E-1
0.83007E-1,-6.05377E-1
0.23193E-1,-6.30127E-1
-1.95312E-2,-6.45935E-1
-4.80346E-2,-6.52252E-1
-7.32421E-2,-6.49231E-1
-1.04309E-1,-6.33270E-1
-1.48590E-1,-6.03912E-1
-2.08557E-1,-5.66345E-1
-2.77771E-1,-5.23498E-1
-3.48907E-1,-4.80194E-1
-4.12994E-1,-4.45739E-1
-4.66766E-1,-4.21417E-1
-5.07629E-1,-4.05883E-1
-5.35095E-1,-3.89587E-1
-5.52124E-1,-3.64318E-1
-5.63446E-1,-3.21807E-1
-5.74310E-1,-2.60376E-1
-5.85784E-1,-1.80542E-1
-5.98938E-1,-9.16137E-2
-6.13830E-1,-4.15039E-3
-6.29333E-1,0.72326E-1
-6.44592E-1,1.34887E-1
-6.52740E-1,1.8396E-1
-6.46453E-1,2.26776E-1
-6.21276E-1,2.68707E-1
-5.75012E-1,3.16955E-1
-5.08850E-1,3.74511E-1
-4.26864E-1,4.39239E-1
-3.41857E-1,5.04394E-1
-2.63793E-1,5.66772E-1
-2.00561E-1,6.17797E-1
-1.47705E-1,6.55639E-1
-9.91210E-2,6.75842E-1
-4.87365E-2,6.75567E-1
0.16906E-1,6.58233E-1
1.03546E-1,6.21368E-1
2.07794E-1,5.67901E-1
3.15246E-1,5.04028E-1
4.14886E-1,4.42199E-1
4.97528E-1,3.88061E-1
5.58105E-1,3.41430E-1
5.95123E-1,2.97851E-1
6.14135E-1,2.48046E-1
6.15814E-1,1.76269E-1
6.02447E-1,0.78002E-1
5.70831E-1,-4.00085E-2
5.3125E-1,-1.62231E-1
4.90051E-1,-2.77893E-1
4.48791E-1,-3.68896E-1
4.13024E-1,-4.32189E-1
3.77990E-1,-4.68566E-1
3.32336E-1,-4.81597E-1
2.69073E-1,-4.76623E-1
1.81488E-1,-4.60388E-1
0.79345E-1,-4.26696E-1
-2.26745E-2,-3.88763E-1
-1.08017E-1,-3.49487E-1
-1.64718E-1,-3.09494E-1
-1.78848E-1,-2.64404E-1
-1.41326E-1,-2.19406E-1
-5.19409E-2,-1.84234E-1
0.76400E-1,-1.77413E-1
2.07489E-1,-2.23602E-1
2.85583E-1,-3.28765E-1
2.63977E-1,-4.66705E-1
1.33300E-1,-5.86975E-1
-6.50634E-2,-6.44653E-1
-2.66052E-1,-6.38000E-1
-4.25415E-1,-5.98571E-1
-5.38330E-1,-5.48278E-1
-6.13220E-1,-4.94171E-1
-6.51763E-1,-4.26605E-1
-6.71112E-1,-3.40637E-1
-6.72241E-1,-2.29553E-1
-6.61621E-1,-9.88769E-2
-6.42761E-1,0.30426E-1
-6.25762E-1,1.49536E-1
-6.16058E-1,2.42218E-1
-6.03149E-1,3.05908E-1
-5.88256E-1,3.45703E-1
-5.65734E-1,3.71673E-1
-5.19043E-1,3.89556E-1
-4.43969E-1,4.09118E-1
-3.48602E-1,4.31488E-1
-2.42279E-1,4.60571E-1
-1.19445E-1,4.75769E-1
-3.71704E-2,5.11077E-1
0.14679E-1,5.47821E-1
0.39154E-1,5.77728E-1
0.46051E-1,5.87951E-1
0.50384E-1,5.72174E-1
0.71228E-1,5.30487E-1
1.15661E-1,4.62768E-1
1.81381E-1,3.82263E-1
2.57278E-1,3.01834E-1
3.33770E-1,2.42904E-1
4.00665E-1,2.12341E-1
4.50347E-1,2.09381E-1
4.80896E-1,2.21557E-1
4.79705E-1,2.34039E-1
4.58969E-1,2.29843E-1
4.25598E-1,1.92901E-1
3.88610E-1,1.26800E-1
3.60580E-1,0.37994E-1
3.45214E-1,-5.64575E-2
3.52798E-1,-1.47796E-1
3.78265E-1,-2.09213E-1
4.12811E-1,-2.40264E-1
4.44793E-1,-2.42157E-1
4.60266E-1,-2.25585E-1
4.44656E-1,-2.03430E-1
3.98895E-1,-1.92169E-1
3.29788E-1,-1.99340E-1
2.53433E-1,-2.30804E-1
1.81121E-1,-2.84881E-1
1.33056E-1,-3.44604E-1
1.14166E-1,-4.00543E-1
1.20239E-1,-4.48730E-1
1.44134E-1,-4.76684E-1
1.70898E-1,-4.79492E-1
1.83929E-1,-4.54376E-1
1.69342E-1,-4.13940E-1
1.22100E-1,-3.67523E-1
0.50537E-1,-3.35754E-1
-3.48053E-2,-3.26568E-1
-1.14181E-1,-3.44024E-1
-1.72119E-1,-3.80493E-1
-1.97387E-1,-4.25781E-1
-1.91162E-1,-4.68261E-1
-1.66503E-1,-4.92401E-1
-1.36108E-1,-4.86267E-1
-1.16638E-1,-4.45800E-1
-1.21200E-1,-3.80401E-1
-1.54861E-1,-3.02444E-1
-2.16064E-1,-2.33642E-1
-2.93243E-1,-1.86309E-1
-3.64502E-1,-1.75720E-1
-4.15893E-1,-1.97265E-1
-4.46868E-1,-2.37335E-1
-4.46777E-1,-2.77557E-1
-4.20715E-1,-2.95074E-1
-3.76007E-1,-2.80731E-1
-3.26568E-1,-2.27020E-1
-2.91320E-1,-1.45019E-1
-2.81372E-1,-6.09436E-2
-2.98538E-1,0.40206E-1
-3.51013E-1,1.09191E-1
-4.20776E-1,1.38153E-1
-4.77478E-1,1.25061E-1
-5.14709E-1,0.91674E-1
-5.07812E-1,0.54565E-1
-4.58419E-1,0.26901E-1
-3.77838E-1,0.29449E-1
-2.91244E-1,0.61325E-1
-2.12051E-1,1.14700E-1
-1.67877E-1,1.81213E-1
-1.57455E-1,2.50412E-1
-1.68029E-1,3.22540E-1
-2.03857E-1,3.74298E-1
-2.46978E-1,3.95690E-1
-2.74017E-1,3.87878E-1
-2.73010E-1,3.57757E-1
-2.39166E-1,3.125E-1
-1.75964E-1,2.67517E-1
-9.49096E-2,2.37121E-1
-1.01623E-2,2.32696E-1
0.65048E-1,2.59811E-1
1.17218E-1,3.09509E-1
1.43035E-1,3.70819E-1
1.41479E-1,4.24926E-1
1.20697E-1,4.51553E-1
0.94726E-1,4.40582E-1
0.80505E-1,3.91052E-1
0.88531E-1,3.09387E-1
1.23062E-1,2.19833E-1
1.83029E-1,1.44516E-1
END

