CITIFILE A.01.00
#NA VERSION HP8720ES.07.74: Oct 30, 2002
NAME DATA
VAR FREQ MAG 201
DATA S[1,1] RI
SEG_LIST_BEGIN
SEG 100000000 500000000 201
SEG_LIST_END
BEGIN
6.92199E-1,-4.07226E-1
6.71325E-1,-4.17999E-1
6.53503E-1,-4.24682E-1
6.33911E-1,-4.29443E-1
6.09191E-1,-4.33746E-1
5.81726E-1,-4.36279E-1
5.48736E-1,-4.27948E-1
5.21606E-1,-4.08630E-1
5.04943E-1,-3.87512E-1
4.85656E-1,-3.63739E-1
4.79888E-1,-3.33282E-1
4.76074E-1,-3.10241E-1
4.82177E-1,-2.90222E-1
4.77905E-1,-2.81402E-1
4.71252E-1,-2.55615E-1
4.71740E-1,-2.30621E-1
4.81353E-1,-2.00378E-1
4.98352E-1,-1.76559E-1
5.1651E-1,-1.54602E-1
5.43518E-1,-1.29821E-1
5.87249E-1,-1.18560E-1
6.17431E-1,-1.38244E-1
6.27807E-1,-1.41571E-1
6.55242E-1,-1.37023E-1
6.84356E-1,-1.53320E-1
6.98638E-1,-1.74133E-1
7.07336E-1,-1.90490E-1
7.15850E-1,-2.00134E-1
7.2229E-1,-2.15759E-1
7.26623E-1,-2.22412E-1
7.39196E-1,-2.29980E-1
7.49694E-1,-2.41149E-1
7.58117E-1,-2.62207E-1
7.63793E-1,-2.77465E-1
7.67913E-1,-2.88940E-1
7.73498E-1,-3.05969E-1
7.73620E-1,-3.22448E-1
7.75177E-1,-3.39111E-1
7.75695E-1,-3.54736E-1
7.74261E-1,-3.71551E-1
7.73345E-1,-3.86505E-1
7.67608E-1,-4.08172E-1
7.63061E-1,-4.20288E-1
7.58972E-1,-4.36767E-1
7.51037E-1,-4.53552E-1
7.40417E-1,-4.63439E-1
7.35443E-1,-4.72930E-1
7.27386E-1,-4.79278E-1
7.26745E-1,-4.90356E-1
7.20184E-1,-5.04089E-1
7.11486E-1,-5.16418E-1
7.01538E-1,-5.28320E-1
6.92871E-1,-5.39672E-1
6.83837E-1,-5.52551E-1
6.73645E-1,-5.64697E-1
6.59484E-1,-5.75103E-1
6.50817E-1,-5.83526E-1
6.41784E-1,-5.93566E-1
6.31164E-1,-6.02874E-1
6.20544E-1,-6.10717E-1
6.09314E-1,-6.18408E-1
5.96191E-1,-6.25671E-1
5.82153E-1,-6.32568E-1
5.68786E-1,-6.36474E-1
5.55999E-1,-6.44439E-1
5.40191E-1,-6.50604E-1
5.25878E-1,-6.55883E-1
5.11596E-1,-6.62780E-1
4.97863E-1,-6.66564E-1
4.86816E-1,-6.72485E-1
4.71984E-1,-6.78344E-1
4.57733E-1,-6.80786E-1
4.44061E-1,-6.85241E-1
4.27703E-1,-6.88201E-1
4.11804E-1,-6.89636E-1
3.94683E-1,-6.875E-1
3.79577E-1,-6.87805E-1
3.63586E-1,-6.88659E-1
3.50158E-1,-6.87805E-1
3.34960E-1,-6.89819E-1
3.18878E-1,-6.92596E-1
3.01055E-1,-6.91253E-1
2.84484E-1,-6.91345E-1
2.66967E-1,-6.89453E-1
2.50671E-1,-6.85852E-1
2.34802E-1,-6.82037E-1
2.17926E-1,-6.75506E-1
2.02606E-1,-6.71539E-1
1.83044E-1,-6.68731E-1
1.60308E-1,-6.60858E-1
1.39099E-1,-6.49658E-1
1.21032E-1,-6.36413E-1
1.05377E-1,-6.28479E-1
0.84564E-1,-6.17462E-1
0.65338E-1,-6.05316E-1
0.44128E-1,-5.91888E-1
0.22430E-1,-5.74066E-1
0.05737E-1,-5.52185E-1
-8.97216E-3,-5.31494E-1
-2.27050E-2,-5.09094E-1
-3.56140E-2,-4.84680E-1
-4.93164E-2,-4.60266E-1
-6.09588E-2,-4.27307E-1
-6.76879E-2,-3.92364E-1
-7.13958E-2,-3.55819E-1
-6.79931E-2,-3.14590E-1
-5.34973E-2,-2.71881E-1
-2.69775E-2,-2.39440E-1
-4.73022E-3,-2.19299E-1
0.17036E-1,-1.95045E-1
0.48614E-1,-1.76673E-1
0.80818E-1,-1.73034E-1
1.00608E-1,-1.71310E-1
1.23817E-1,-1.65420E-1
1.51199E-1,-1.64184E-1
1.78253E-1,-1.70364E-1
1.96868E-1,-1.82159E-1
2.13592E-1,-1.86111E-1
2.38006E-1,-1.95877E-1
2.59246E-1,-2.12722E-1
2.76443E-1,-2.37548E-1
2.86239E-1,-2.67700E-1
2.84454E-1,-3.02703E-1
2.70111E-1,-3.33236E-1
2.50946E-1,-3.53393E-1
2.32299E-1,-3.74511E-1
2.07305E-1,-3.90045E-1
1.80694E-1,-3.97872E-1
1.55975E-1,-4.02435E-1
1.32080E-1,-4.02877E-1
1.10199E-1,-3.99414E-1
0.88134E-1,-3.97522E-1
0.66284E-1,-3.94165E-1
0.37872E-1,-3.88244E-1
0.10574E-1,-3.77075E-1
-1.89819E-2,-3.63205E-1
-4.89502E-2,-3.41354E-1
-7.48596E-2,-3.16925E-1
-9.99755E-2,-2.86895E-1
-1.19522E-1,-2.49603E-1
-1.25366E-1,-2.14752E-1
-1.34498E-1,-1.86950E-1
-1.46545E-1,-1.53541E-1
-1.51741E-1,-1.14013E-1
-1.53854E-1,-7.55996E-2
-1.52694E-1,-3.23486E-2
-1.42021E-1,0.13641E-1
-1.24931E-1,5.40008E-2
-1.05163E-1,8.92715E-2
-8.60443E-2,1.23886E-1
-6.29806E-2,1.57432E-1
-3.66745E-2,1.87950E-1
-9.00268E-3,2.15690E-1
0.22537E-1,2.39913E-1
0.55450E-1,2.61322E-1
0.91552E-1,2.77923E-1
1.26892E-1,2.88330E-1
1.59896E-1,2.96844E-1
1.92047E-1,3.06030E-1
2.26623E-1,3.14727E-1
2.63885E-1,3.20159E-1
3.00994E-1,3.20678E-1
3.34991E-1,3.16558E-1
3.65203E-1,3.09906E-1
3.94226E-1,3.03741E-1
4.21859E-1,2.96402E-1
4.47906E-1,2.87658E-1
4.73022E-1,2.7771E-1
4.99191E-1,2.64221E-1
5.21789E-1,2.51190E-1
5.43548E-1,2.36419E-1
5.64758E-1,2.21557E-1
5.83984E-1,2.06512E-1
6.02508E-1,1.90338E-1
6.19140E-1,1.74652E-1
6.33483E-1,1.5802E-1
6.47857E-1,1.43524E-1
6.60156E-1,1.2677E-1
6.70745E-1,1.10168E-1
6.80450E-1,0.92956E-1
6.87927E-1,0.75103E-1
6.93847E-1,0.58013E-1
6.99981E-1,0.42602E-1
7.05688E-1,0.28259E-1
7.10754E-1,0.11474E-1
7.15972E-1,-9.15527E-4
7.20031E-1,-1.56860E-2
7.23358E-1,-3.01208E-2
7.26989E-1,-4.21142E-2
7.29705E-1,-5.44738E-2
7.31079E-1,-6.53076E-2
7.35290E-1,-7.58056E-2
7.36511E-1,-8.76464E-2
7.39807E-1,-9.68627E-2
7.42675E-1,-1.10839E-1
7.43957E-1,-1.21612E-1
7.44934E-1,-1.33911E-1
7.47192E-1,-1.45446E-1
7.48168E-1,-1.58172E-1
7.49877E-1,-1.70013E-1
7.49267E-1,-1.81274E-1
END

