CITIFILE A.01.00
#NA VERSION HP8720ES.07.74: Oct 30, 2002
NAME DATA
VAR FREQ MAG 101
DATA S[1,1] RI
SEG_LIST_BEGIN
SEG 2000000000 3000000000 101
SEG_LIST_END
BEGIN
-3.71398E-1,-1.41037E-1
-2.98156E-1,1.58584E-1
-3.50189E-2,3.09280E-1
2.60818E-1,2.33520E-1
3.82186E-1,-3.51104E-2
2.50564E-1,-2.70538E-1
0.09414E-1,-3.18801E-1
-2.13790E-1,-1.82998E-1
-2.65472E-1,1.00341E-1
-9.10034E-2,2.91748E-1
1.20758E-1,2.94998E-1
2.65258E-1,1.56219E-1
2.59094E-1,-6.95648E-2
0.65506E-1,-2.19268E-1
-1.65725E-1,-1.76284E-1
-2.73956E-1,-3.46374E-3
-2.29568E-1,1.81442E-1
-4.96063E-2,2.58026E-1
1.27708E-1,1.56806E-1
1.65939E-1,-2.77557E-2
0.83114E-1,-1.76384E-1
-7.53631E-2,-2.21633E-1
-1.95404E-1,-1.26327E-1
-1.89025E-1,0.22659E-1
-7.64923E-2,1.17767E-1
7.32650E-2,1.15593E-1
1.73164E-1,0.05073E-1
1.45446E-1,-1.18782E-1
0.44586E-1,-1.63391E-1
-5.40618E-2,-1.11900E-1
-8.72116E-2,-1.06582E-2
-4.62875E-2,9.70001E-2
4.65393E-2,1.21391E-1
1.08627E-1,7.88955E-2
1.13052E-1,1.37786E-2
5.97267E-2,-4.55017E-2
-2.28672E-2,-4.26044E-2
-8.50029E-2,1.31492E-2
-7.34481E-2,7.74803E-2
-2.75383E-2,9.51843E-2
0.88462E-2,5.95359E-2
8.67414E-3,9.02700E-3
-1.97849E-2,-2.58731E-2
-5.48782E-2,-3.22952E-2
-6.59866E-2,-1.43852E-2
-4.39720E-2,-4.88281E-3
-2.41069E-2,-1.45912E-2
-8.43811E-3,-2.94475E-2
-8.00323E-3,-5.25207E-2
-1.23825E-2,-5.48095E-2
-1.56841E-2,-3.6623E-2
6.54029E-3,-1.38540E-2
3.67832E-2,-1.06639E-2
6.60018E-2,-1.64642E-2
7.29942E-2,-4.82902E-2
3.25927E-2,-6.08978E-2
-9.56153E-3,-2.73685E-2
-1.51214E-2,3.16867E-2
0.61378E-2,7.37342E-2
5.24482E-2,9.31129E-2
8.60252E-2,5.42259E-2
6.37207E-2,0.92887E-2
2.29005E-2,-2.12736E-2
-4.75254E-2,-3.13739E-2
-1.07391E-1,1.99432E-2
-1.02645E-1,7.93685E-2
-5.70144E-2,1.13243E-1
1.05819E-2,9.29031E-2
6.11114E-2,0.74424E-2
3.11927E-2,-9.07859E-2
-4.59365E-2,-1.42074E-1
-1.33964E-1,-1.16775E-1
-1.55914E-1,-3.02963E-2
-9.94720E-2,6.19278E-2
3.23791E-2,8.59909E-2
1.36596E-1,0.09841E-1
1.60041E-1,-1.01776E-1
0.88623E-1,-1.85592E-1
-1.82418E-2,-1.70730E-1
-9.39598E-2,-7.32193E-2
-8.61282E-2,7.17582E-2
0.25512E-1,1.72340E-1
1.59935E-1,1.56669E-1
2.21527E-1,0.50308E-1
1.69174E-1,-6.96792E-2
0.26451E-1,-1.32247E-1
-1.34803E-1,-6.12258E-2
-1.90986E-1,0.86776E-1
-1.31385E-1,2.02087E-1
-1.55944E-2,2.30285E-1
1.06185E-1,1.50367E-1
1.26129E-1,-3.08380E-2
0.15754E-1,-1.61590E-1
-1.26304E-1,-1.90277E-1
-2.44369E-1,-1.21337E-1
-2.48458E-1,0.39932E-1
-1.04919E-1,1.38443E-1
7.74612E-2,1.10511E-1
2.01576E-1,-2.46582E-2
1.98516E-1,-2.07672E-1
0.54870E-1,-2.90786E-1
END

